!Keysight Technologies,N5247B,US57180426,A.13.65.03
!Date: Tuesday, December 03, 2019 16:20:04
!Correction: S33(Full 1 Port(3)) 
!S1P File: Measurement: S33:
# Hz S  RI   R 50
68000000000 0.62176418 0.48276299
68044444444.444 0.63542056 0.46278524
68088888888.889 0.64855212 0.4425818
68133333333.333 0.66107678 0.42206141
68177777777.778 0.67297447 0.40105242
68222222222.222 0.68373114 0.37967178
68266666666.667 0.69371539 0.35846347
68311111111.111 0.70304006 0.33709592
68355555555.556 0.711712 0.31573501
68400000000 0.71978354 0.29424375
68444444444.444 0.72719592 0.27234817
68488888888.889 0.73366231 0.25049642
68533333333.333 0.73964101 0.22886215
68577777777.778 0.74516344 0.20704848
68622222222.222 0.75010371 0.18508597
68666666666.667 0.75434852 0.16283262
68711111111.111 0.75767255 0.14072125
68755555555.556 0.76049799 0.11899042
68800000000 0.76325572 0.097171552
68844444444.444 0.76533097 0.074950904
68888888888.889 0.7665571 0.052918676
68933333333.333 0.76709729 0.031039799
68977777777.778 0.76706272 0.009492741
69022222222.222 0.76660323 -0.011908716
69066666666.667 0.76558638 -0.03347069
69111111111.111 0.76380295 -0.054835562
69155555555.556 0.76134562 -0.07616251
69200000000 0.75814426 -0.097129859
69244444444.444 0.75462508 -0.117554
69288888888.889 0.75089002 -0.13805071
69333333333.333 0.74675757 -0.15857741
69377777777.778 0.74208385 -0.17901185
69422222222.222 0.7369718 -0.19936609
69466666666.667 0.73139638 -0.21950641
69511111111.111 0.72555089 -0.23976843
69555555555.556 0.7188428 -0.26008746
69600000000 0.71151072 -0.27996168
69644444444.444 0.7037372 -0.29964235
69688888888.889 0.69542289 -0.31920937
69733333333.333 0.68655866 -0.3387875
69777777777.778 0.6768437 -0.3583031
69822222222.222 0.66605848 -0.37721023
69866666666.667 0.65490377 -0.39553857
69911111111.111 0.64327031 -0.4135257
69955555555.556 0.63097268 -0.43100795
70000000000 0.61823773 -0.4484027
70044444444.444 0.60440701 -0.46534106
70088888888.889 0.59013069 -0.4816727
70133333333.333 0.57529628 -0.49744245
70177777777.778 0.56011671 -0.51263154
70222222222.222 0.54465365 -0.52769405
70266666666.667 0.52850926 -0.54251701
70311111111.111 0.51170915 -0.55688524
70355555555.556 0.49457008 -0.57080346
70400000000 0.47679186 -0.58435982
70444444444.444 0.45829105 -0.59692711
70488888888.889 0.43924949 -0.60908806
70533333333.333 0.41971901 -0.6205194
70577777777.778 0.39993531 -0.63113838
70622222222.222 0.37958664 -0.64127254
70666666666.667 0.35847735 -0.65076381
70711111111.111 0.33665347 -0.65961701
70755555555.556 0.31402543 -0.66724616
70800000000 0.29120293 -0.67395133
70844444444.444 0.26805022 -0.67988092
70888888888.889 0.24482733 -0.68495542
70933333333.333 0.22090262 -0.68936831
70977777777.778 0.1964037 -0.69247776
71022222222.222 0.1717791 -0.69398564
71066666666.667 0.14765987 -0.69475317
71111111111.111 0.12284293 -0.6948458
71155555555.556 0.097491555 -0.69335294
71200000000 0.072734043 -0.69029427
71244444444.444 0.048395116 -0.6864174
71288888888.889 0.023985527 -0.68177372
71333333333.333 -0.00069900195 -0.6757676
71377777777.778 -0.024959117 -0.66837555
71422222222.222 -0.049045958 -0.66031963
71466666666.667 -0.072832569 -0.65092754
71511111111.111 -0.096449092 -0.64059043
71555555555.556 -0.11929361 -0.6290974
71600000000 -0.14179395 -0.61696041
71644444444.444 -0.16415487 -0.60367054
71688888888.889 -0.18555897 -0.58872181
71733333333.333 -0.2058284 -0.57294881
71777777777.778 -0.22517033 -0.55653524
71822222222.222 -0.24413422 -0.53905666
71866666666.667 -0.2618607 -0.52053541
71911111111.111 -0.27892679 -0.5013932
71955555555.556 -0.29479817 -0.4812094
72000000000 -0.30975154 -0.46044299
72044444444.444 -0.32356119 -0.43921
72088888888.889 -0.33677286 -0.41727391
72133333333.333 -0.34849578 -0.39421925
72177777777.778 -0.35803953 -0.37075543
72222222222.222 -0.36607367 -0.34754029
72266666666.667 -0.37292016 -0.32436094
72311111111.111 -0.37842485 -0.30093497
72355555555.556 -0.38264745 -0.27747488
72400000000 -0.3854402 -0.25432459
72444444444.444 -0.38698828 -0.23128119
72488888888.889 -0.38697767 -0.20872888
72533333333.333 -0.38572285 -0.18722306
72577777777.778 -0.38321194 -0.1661146
72622222222.222 -0.37977055 -0.1466886
72666666666.667 -0.37584439 -0.12803046
72711111111.111 -0.37165102 -0.10995689
72755555555.556 -0.3665278 -0.092821896
72800000000 -0.36104089 -0.076392703
72844444444.444 -0.3546389 -0.060925048
72888888888.889 -0.34795398 -0.046906762
72933333333.333 -0.34151387 -0.03391571
72977777777.778 -0.33531889 -0.021367483
73022222222.222 -0.32943705 -0.0094246659
73066666666.667 -0.32292768 0.0032246537
73111111111.111 -0.31525141 0.014650532
73155555555.556 -0.30714002 0.024657113
73200000000 -0.29884788 0.032756593
73244444444.444 -0.29214978 0.039793279
73288888888.889 -0.28652817 0.046732321
73333333333.333 -0.28075573 0.054059766
73377777777.778 -0.27507856 0.060948145
73422222222.222 -0.26960197 0.067802683
73466666666.667 -0.26382047 0.074789122
73511111111.111 -0.25609523 0.080367275
73555555555.556 -0.25022611 0.082242712
73600000000 -0.24764679 0.085233063
73644444444.444 -0.24462782 0.089153923
73688888888.889 -0.24206513 0.092556223
73733333333.333 -0.24075557 0.095485203
73777777777.778 -0.24108225 0.099485986
73822222222.222 -0.24106671 0.10506903
73866666666.667 -0.24077204 0.11009793
73911111111.111 -0.24156837 0.11694591
73955555555.556 -0.23976567 0.12457512
74000000000 -0.23817757 0.12987369
74044444444.444 -0.23853745 0.13556769
74088888888.889 -0.23880574 0.14353059
74133333333.333 -0.23715839 0.1510839
74177777777.778 -0.23637021 0.1580002
74222222222.222 -0.23635483 0.16573423
74266666666.667 -0.23576136 0.17574988
74311111111.111 -0.23345172 0.18562607
74355555555.556 -0.23087868 0.19507417
74400000000 -0.22832362 0.20498644
74444444444.444 -0.22526155 0.21612906
74488888888.889 -0.21996151 0.22803682
74533333333.333 -0.21296968 0.23854592
74577777777.778 -0.20606445 0.24822105
74622222222.222 -0.19807987 0.25863826
74666666666.667 -0.18877558 0.26778775
74711111111.111 -0.17931019 0.27575478
74755555555.556 -0.16977693 0.2835111
74800000000 -0.158888 0.29086629
74844444444.444 -0.14744174 0.29650137
74888888888.889 -0.13660058 0.3016628
74933333333.333 -0.12499424 0.30675995
74977777777.778 -0.11187005 0.31060836
75022222222.222 -0.09993504 0.31298092
75066666666.667 -0.088126622 0.31544548
75111111111.111 -0.074942432 0.31778985
75155555555.556 -0.061039872 0.3181937
75200000000 -0.047594089 0.31684312
75244444444.444 -0.03499978 0.31510326
75288888888.889 -0.022383304 0.31277302
75333333333.333 -0.0096377553 0.30978465
75377777777.778 0.0037260149 0.30573523
75422222222.222 0.016324544 0.29923016
75466666666.667 0.027628776 0.29214162
75511111111.111 0.038388163 0.28468049
75555555555.556 0.048827447 0.27644756
75600000000 0.058770232 0.26721573
75644444444.444 0.067634672 0.25686878
75688888888.889 0.074584559 0.24615207
75733333333.333 0.081211075 0.23606607
75777777777.778 0.087813824 0.22558865
75822222222.222 0.09343522 0.21273592
75866666666.667 0.096459255 0.20064338
75911111111.111 0.098897614 0.18864831
75955555555.556 0.10036726 0.17701329
76000000000 0.10085901 0.16524567
76044444444.444 0.10003436 0.15414828
76088888888.889 0.098472252 0.14365166
76133333333.333 0.096422456 0.13351728
76177777777.778 0.093287766 0.12400018
76222222222.222 0.090265512 0.11534337
76266666666.667 0.086938895 0.106939
76311111111.111 0.082926847 0.09806034
76355555555.556 0.076557852 0.090081133
76400000000 0.070491381 0.08507438
76444444444.444 0.065018818 0.080104381
76488888888.889 0.060171038 0.075979359
76533333333.333 0.054450329 0.071723714
76577777777.778 0.048450764 0.069005884
76622222222.222 0.043275714 0.067818969
76666666666.667 0.039261363 0.066860676
76711111111.111 0.035262581 0.065070674
76755555555.556 0.030302294 0.064597785
76800000000 0.026098827 0.065412164
76844444444.444 0.02320243 0.066844121
76888888888.889 0.021121973 0.067854442
76933333333.333 0.018430293 0.069061428
76977777777.778 0.016822621 0.07144171
77022222222.222 0.01553599 0.074197568
77066666666.667 0.01596898 0.077541143
77111111111.111 0.017887201 0.080103695
77155555555.556 0.019683478 0.081492096
77200000000 0.021840623 0.083197497
77244444444.444 0.024160258 0.085292071
77288888888.889 0.027996447 0.087475702
77333333333.333 0.032586776 0.088811882
77377777777.778 0.037949707 0.089780606
77422222222.222 0.043824494 0.089364842
77466666666.667 0.04949069 0.088909544
77511111111.111 0.056356866 0.088540167
77555555555.556 0.06476789 0.086984068
77600000000 0.073692277 0.082870297
77644444444.444 0.080654062 0.077521265
77688888888.889 0.087715611 0.07269375
77733333333.333 0.095260873 0.066883437
77777777777.778 0.10330426 0.059299015
77822222222.222 0.10973354 0.050504517
77866666666.667 0.11528045 0.041875266
77911111111.111 0.12193806 0.032679915
77955555555.556 0.12715144 0.021666411
78000000000 0.13119771 0.010026158
78044444444.444 0.13443229 -0.0020326078
78088888888.889 0.13726118 -0.014272325
78133333333.333 0.13974145 -0.027457057
78177777777.778 0.14147109 -0.041518487
78222222222.222 0.14103244 -0.055585418
78266666666.667 0.14024316 -0.068984278
78311111111.111 0.13876447 -0.082927033
78355555555.556 0.13570683 -0.09722399
78400000000 0.13229088 -0.11179592
78444444444.444 0.12773938 -0.1266232
78488888888.889 0.12170354 -0.14255568
78533333333.333 0.11331006 -0.15772122
78577777777.778 0.10359669 -0.17120939
78622222222.222 0.094586365 -0.18453507
78666666666.667 0.083403088 -0.19901787
78711111111.111 0.069818206 -0.21223798
78755555555.556 0.055367243 -0.22329214
78800000000 0.041119326 -0.23374245
78844444444.444 0.025728574 -0.24486226
78888888888.889 0.0079947822 -0.2547403
78933333333.333 -0.011183742 -0.26224694
78977777777.778 -0.029848926 -0.26778057
79022222222.222 -0.048796639 -0.27297285
79066666666.667 -0.069546163 -0.27690333
79111111111.111 -0.090001799 -0.27775991
79155555555.556 -0.10966595 -0.2779659
79200000000 -0.12937677 -0.27719346
79244444444.444 -0.15002014 -0.27579123
79288888888.889 -0.17132804 -0.27193826
79333333333.333 -0.19242232 -0.26588348
79377777777.778 -0.21186343 -0.25788662
79422222222.222 -0.23062608 -0.24980678
79466666666.667 -0.24934649 -0.24071972
79511111111.111 -0.26766253 -0.23082793
79555555555.556 -0.28551292 -0.21985477
79600000000 -0.30318344 -0.20849724
79644444444.444 -0.3202126 -0.19493093
79688888888.889 -0.33618709 -0.18016158
79733333333.333 -0.35234195 -0.16508569
79777777777.778 -0.36882201 -0.14866312
79822222222.222 -0.38450027 -0.13021961
79866666666.667 -0.39862365 -0.11142246
79911111111.111 -0.41077676 -0.092597283
79955555555.556 -0.422876 -0.074729048
80000000000 -0.43348521 -0.055453006
80044444444.444 -0.44321838 -0.035042044
80088888888.889 -0.45165446 -0.01322861
80133333333.333 -0.45914987 0.010075201
80177777777.778 -0.46460187 0.035521816
80222222222.222 -0.46827042 0.061567083
80266666666.667 -0.47012162 0.088754743
80311111111.111 -0.47157732 0.11452943
80355555555.556 -0.47125489 0.14039418
80400000000 -0.46945074 0.16628911
80444444444.444 -0.46622217 0.19190358
80488888888.889 -0.46139693 0.21660651
80533333333.333 -0.45604923 0.24087594
80577777777.778 -0.44957733 0.2646108
80622222222.222 -0.44209054 0.28711635
80666666666.667 -0.43478134 0.30883417
80711111111.111 -0.42711726 0.33041865
80755555555.556 -0.4195039 0.35048041
80800000000 -0.41083506 0.36982527
80844444444.444 -0.40131149 0.38928303
80888888888.889 -0.39064315 0.40959468
80933333333.333 -0.37822643 0.43104416
80977777777.778 -0.36345968 0.45278761
81022222222.222 -0.34693775 0.47417474
81066666666.667 -0.3300021 0.49397069
81111111111.111 -0.31259781 0.51284605
81155555555.556 -0.29384938 0.53107929
81200000000 -0.27395949 0.54838389
81244444444.444 -0.25322863 0.56479192
81288888888.889 -0.23144841 0.58006579
81333333333.333 -0.20886517 0.59426433
81377777777.778 -0.18590519 0.60695636
81422222222.222 -0.16280846 0.61876595
81466666666.667 -0.13926931 0.62945992
81511111111.111 -0.11559078 0.63857019
81555555555.556 -0.092606664 0.64652842
81600000000 -0.070062324 0.65325427
81644444444.444 -0.048167616 0.65907496
81688888888.889 -0.027162302 0.66392159
81733333333.333 -0.0066672573 0.66815352
81777777777.778 0.013443517 0.67169881
81822222222.222 0.033181291 0.67478555
81866666666.667 0.053374298 0.67755765
81911111111.111 0.073768422 0.67961931
81955555555.556 0.094894916 0.68094361
82000000000 0.116124 0.68126214
82044444444.444 0.13790566 0.68106723
82088888888.889 0.16029887 0.68001056
82133333333.333 0.18328349 0.67794877
82177777777.778 0.20649852 0.67458647
82222222222.222 0.22976007 0.67034352
82266666666.667 0.25270292 0.66470927
82311111111.111 0.27483925 0.65827459
82355555555.556 0.29660359 0.65127832
82400000000 0.31750643 0.6433087
82444444444.444 0.33725321 0.63471007
82488888888.889 0.35572693 0.6258173
82533333333.333 0.37327859 0.61667806
82577777777.778 0.38730037 0.60782063
82622222222.222 0.40128005 0.59853828
82666666666.667 0.41531515 0.58893669
82711111111.111 0.42954078 0.57877976
82755555555.556 0.44373813 0.56830513
82800000000 0.45825332 0.55745643
82844444444.444 0.47311971 0.54593533
82888888888.889 0.48760688 0.53364998
82933333333.333 0.50200081 0.52131397
82977777777.778 0.5163337 0.50864393
83022222222.222 0.53035641 0.49521914
83066666666.667 0.54397976 0.48134094
83111111111.111 0.55725068 0.46703449
83155555555.556 0.57013863 0.4524062
83200000000 0.58293116 0.43723238
83244444444.444 0.59557933 0.42151365
83288888888.889 0.60763448 0.40470597
83333333333.333 0.61855602 0.38712946
83377777777.778 0.62784988 0.36912915
83422222222.222 0.6358521 0.35168779
83466666666.667 0.64353365 0.3344273
83511111111.111 0.65070319 0.31740534
83555555555.556 0.65765417 0.30071667
83600000000 0.66464329 0.28399637
83644444444.444 0.67126667 0.26666674
83688888888.889 0.67730665 0.24924205
83733333333.333 0.68291569 0.23147613
83777777777.778 0.68776083 0.21363007
83822222222.222 0.69174248 0.19575891
83866666666.667 0.69507706 0.17837909
83911111111.111 0.69812256 0.16102849
83955555555.556 0.70070904 0.14302401
84000000000 0.70292211 0.1250391
84044444444.444 0.7050913 0.10657828
84088888888.889 0.7068398 0.087662742
84133333333.333 0.70818961 0.068204373
84177777777.778 0.70895445 0.048182976
84222222222.222 0.70897818 0.027745171
84266666666.667 0.70798874 0.0068867602
84311111111.111 0.7057358 -0.014100316
84355555555.556 0.70276833 -0.034515917
84400000000 0.69894302 -0.054883696
84444444444.444 0.69427359 -0.074675947
84488888888.889 0.68935889 -0.093984216
84533333333.333 0.68343949 -0.11293336
84577777777.778 0.67688906 -0.13098773
84622222222.222 0.66997355 -0.1482614
84666666666.667 0.66298628 -0.16504659
84711111111.111 0.65569472 -0.18162636
84755555555.556 0.64839107 -0.1980038
84800000000 0.64063716 -0.21467324
84844444444.444 0.63191533 -0.23118041
84888888888.889 0.6230737 -0.24734791
84933333333.333 0.6134764 -0.26359415
84977777777.778 0.60330701 -0.27950889
85022222222.222 0.59290308 -0.29490727
85066666666.667 0.5819447 -0.31037456
85111111111.111 0.57006001 -0.32628807
85155555555.556 0.55716938 -0.3424255
85200000000 0.543006 -0.3583554
85244444444.444 0.52853817 -0.37347722
85288888888.889 0.51338661 -0.38859278
85333333333.333 0.49665558 -0.40296012
85377777777.778 0.47942573 -0.4156951
85422222222.222 0.46249026 -0.42726579
85466666666.667 0.44587085 -0.43862003
85511111111.111 0.42813796 -0.44935507
85555555555.556 0.41045976 -0.45848006
85600000000 0.3928315 -0.46697313
85644444444.444 0.37526459 -0.47490975
85688888888.889 0.35749552 -0.48178715
85733333333.333 0.34010103 -0.48785946
85777777777.778 0.32270229 -0.49354702
85822222222.222 0.30432543 -0.49768606
85866666666.667 0.28696629 -0.50073284
85911111111.111 0.27011731 -0.50379646
85955555555.556 0.25307435 -0.50733572
86000000000 0.23474602 -0.51097935
86044444444.444 0.21532513 -0.51311898
86088888888.889 0.19611822 -0.51400614
86133333333.333 0.17695689 -0.51471305
86177777777.778 0.1566519 -0.51430172
86222222222.222 0.13627107 -0.51318157
86266666666.667 0.11552252 -0.51041734
86311111111.111 0.095727652 -0.50593758
86355555555.556 0.077135265 -0.50011361
86400000000 0.059964094 -0.49362868
86444444444.444 0.043677777 -0.48606414
86488888888.889 0.029188421 -0.47811085
86533333333.333 0.015268038 -0.46974126
86577777777.778 0.0019175195 -0.4601492
86622222222.222 -0.0097046262 -0.45012003
86666666666.667 -0.020403385 -0.44035971
86711111111.111 -0.030961635 -0.43063018
86755555555.556 -0.041536499 -0.4197785
86800000000 -0.050370257 -0.40767622
86844444444.444 -0.057739172 -0.39601895
86888888888.889 -0.064967662 -0.38488343
86933333333.333 -0.072407402 -0.3729378
86977777777.778 -0.078765959 -0.35965398
87022222222.222 -0.082929708 -0.34636778
87066666666.667 -0.085637651 -0.33399355
87111111111.111 -0.088798657 -0.32325053
87155555555.556 -0.091860674 -0.31161824
87200000000 -0.093297482 -0.30033952
87244444444.444 -0.094715364 -0.2892383
87288888888.889 -0.09516082 -0.27797917
87333333333.333 -0.094466448 -0.26650831
87377777777.778 -0.092259727 -0.25585395
87422222222.222 -0.088855453 -0.24561755
87466666666.667 -0.083996072 -0.23726204
87511111111.111 -0.079948224 -0.2307115
87555555555.556 -0.076724544 -0.2244616
87600000000 -0.073955566 -0.21769229
87644444444.444 -0.070255198 -0.20965879
87688888888.889 -0.062934883 -0.20230825
87733333333.333 -0.05555572 -0.19824572
87777777777.778 -0.048600357 -0.19601993
87822222222.222 -0.042285305 -0.19493166
87866666666.667 -0.036177047 -0.19495018
87911111111.111 -0.030999117 -0.19760586
87955555555.556 -0.028937791 -0.20003381
88000000000 -0.026791923 -0.20127082
